---
id: "12_independent_channel_behavior"
title: "Independent Channel Behavior"
summary: "Understanding why AXI channels don't have to wait for each other."
protocol: "axi"
tier: "1"
level: "intermediate"
order: 12
tags: ["axi", "architecture", "handshake"]
relatedLessons: ["13_write_transaction_walkthrough"]
prerequisites: ["11_ready_valid_in_depth"]
visualIds: ["wf-axi-write-channels"]
exerciseIds: ["ex-axi-channels-2"]
glossaryTerms: []
checklistIds: []
---

We have established that AXI uses five independent channels. We have also established that every channel uses its own `VALID`/`READY` handshake. 

The true power of AXI emerges when you combine these two facts: **The handshake on one channel has no required temporal relationship with the handshake on another channel.**

## Can Data Arrive Before the Address?

Consider a write transaction. The master wants to write data to an address. Intuitively, you might think the master *must* send the address on the AW channel before it can send the data on the W channel.

**In AXI, this is not required.**

Because the AW channel and the W channel are independent, a master is perfectly allowed to assert `WVALID` and put write data on the bus *before* it ever asserts `AWVALID`. 

Why would it do this? 
Imagine a master that generates data very quickly but takes several cycles to calculate the physical destination address. It can just push the data into the W channel pipe immediately. The slave will see `WVALID`, buffer the incoming data, and simply wait for the `AWVALID` to arrive later to tell it where to actually store the data.

### The Only Ordering Rules

The AXI specification dictates very few hard rules across channels. The only absolute cross-channel dependencies are:

1.  **Writes:** The slave cannot assert `BVALID` (Write Response) until *after* both the final write data beat (`WLAST`) has been accepted AND the write address (`AWVALID`/`AWREADY`) has been accepted. You cannot respond to a write before you have received both the address and the full payload!
2.  **Reads:** The slave cannot assert `RVALID` (Read Data) until *after* the read address (`ARVALID`/`ARREADY`) has been accepted. A slave cannot return data if it does not yet know what address to read from.

Everything else is fair game. Channels can overlap, start early, or start late.
